<Qucs Dataset 0.0.15>
<indep x 10>
  +5.00000000000e+00
  +1.00000000000e+01
  +1.50000000000e+01
  +2.00000000000e+01
  +2.50000000000e+01
  +3.00000000000e+01
  +3.50000000000e+01
  +4.00000000000e+01
  +4.50000000000e+01
  +5.00000000000e+01
</indep>
<dep V1.I x>
  -1.73333333333e+00
  -9.45454545455e-01
  -6.50000000000e-01
  -4.95238095238e-01
  -4.00000000000e-01
  -3.35483870968e-01
  -2.88888888889e-01
  -2.53658536585e-01
  -2.26086956522e-01
  -2.03921568627e-01
</dep>
<dep TheExit.V x>
  +8.66666666667e+00
  +9.45454545455e+00
  +9.75000000000e+00
  +9.90476190476e+00
  +1.00000000000e+01
  +1.00645161290e+01
  +1.01111111111e+01
  +1.01463414634e+01
  +1.01739130435e+01
  +1.01960784314e+01
</dep>
<dep _net0.V x>
  +1.04000000000e+01
  +1.04000000000e+01
  +1.04000000000e+01
  +1.04000000000e+01
  +1.04000000000e+01
  +1.04000000000e+01
  +1.04000000000e+01
  +1.04000000000e+01
  +1.04000000000e+01
  +1.04000000000e+01
</dep>
